Freq.	V(n004)*I(R_load)
Step Information: Kv=100m  (Step: 1/5)
1.00000000000000e+00	-6.48425275554060e-32,8.42102879437253e-37
1.01099099099099e+02	-6.92389052377593e-20,9.09085350771254e-23
2.01198198198198e+02	-4.30160349885867e-18,1.12400297690694e-20
3.01297297297297e+02	-4.85165014554444e-17,1.89848590829542e-19
4.01396396396396e+02	-2.71271340949287e-16,1.41420891157284e-18
5.01495495495495e+02	-1.03186573057769e-15,6.72115305170722e-18
6.01594594594595e+02	-3.07549643813160e-15,2.40322226862080e-17
7.01693693693694e+02	-7.74569973353228e-15,7.06005520402002e-17
8.01792792792793e+02	-1.72442568539820e-14,1.79612034604127e-16
9.01891891891892e+02	-3.49387775830089e-14,4.09377322070992e-16
1.00199099099099e+03	-6.57182163611204e-14,8.55554784221041e-16
1.10209009009009e+03	-1.16396614975876e-13,1.66684874580521e-15
1.20218918918919e+03	-1.96165405745182e-13,3.06463211611147e-15
1.30228828828829e+03	-3.17094649241563e-13,5.36694794482587e-15
1.40238738738739e+03	-4.94683621039350e-13,9.01735048083794e-15
1.50248648648649e+03	-7.48461202733748e-13,1.46190529863924e-14
1.60258558558559e+03	-1.10263657361341e-12,2.29748568757412e-14
1.70268468468468e+03	-1.58680074089973e-12,3.51333447145130e-14
1.80278378378378e+03	-2.23667948843002e-12,5.24418282432811e-14
1.90288288288288e+03	-3.09493836609217e-12,7.66065518873588e-14
2.00298198198198e+03	-4.21204038524940e-12,1.09760662195556e-13
2.10308108108108e+03	-5.64715712886047e-12,1.54540464327893e-13
2.20318018018018e+03	-7.46913402903836e-12,2.14170498097049e-13
2.30327927927928e+03	-9.75751060943440e-12,2.92557978176226e-13
2.40337837837838e+03	-1.26035965351224e-11,3.94397155934995e-13
2.50347747747748e+03	-1.61116043586249e-11,5.25284173963045e-13
2.60357657657658e+03	-2.03998398974076e-11,6.91842998716990e-13
2.70367567567567e+03	-2.56019512256110e-11,9.01863031888567e-13
2.80377477477477e+03	-3.18682373110206e-11,1.16444901706380e-12
2.90387387387387e+03	-3.93670173773500e-11,1.49018387504335e-12
3.00397297297297e+03	-4.82860621218550e-11,1.89130511884848e-12
3.10407207207207e+03	-5.88340879691557e-11,2.38189551796263e-12
3.20417117117117e+03	-7.12423155939654e-11,2.97808870077212e-12
3.30427027027027e+03	-8.57660939982437e-11,3.69829040452116e-12
3.40436936936937e+03	-1.02686591482151e-10,4.56341610339334e-12
3.50446846846847e+03	-1.22312554903147e-10,5.59714576756355e-12
3.60456756756757e+03	-1.44982138673650e-10,6.82619652936505e-12
3.70466666666666e+03	-1.71064805004961e-10,8.28061405700005e-12
3.80476576576576e+03	-2.00963296963638e-10,9.99408346158727e-12
3.90486486486486e+03	-2.35115685966315e-10,1.20042605897785e-11
4.00496396396396e+03	-2.73997495400041e-10,1.43531245817789e-11
4.10506306306306e+03	-3.18123902117718e-10,1.70873526034058e-11
4.20516216216216e+03	-3.68052017622151e-10,2.02587176906050e-11
4.30526126126126e+03	-4.24383250817611e-10,2.39245106763119e-11
4.40536036036036e+03	-4.87765754274793e-10,2.81479872016996e-11
4.50545945945946e+03	-5.58896956023581e-10,3.29988408479341e-11
4.60555855855856e+03	-6.38526178958263e-10,3.85537034595174e-11
4.70565765765766e+03	-7.27457350011763e-10,4.48966737670057e-11
4.80575675675676e+03	-8.26551801329169e-10,5.21198754547747e-11
4.90585585585586e+03	-9.36731165746375e-10,6.03240458592429e-11
5.00595495495496e+03	-1.05898036895715e-09,6.96191565238598e-11
5.10605405405406e+03	-1.19435072083133e-09,8.01250668799105e-11
5.20615315315316e+03	-1.34396310842840e-09,9.19722123668970e-11
5.30625225225225e+03	-1.50901129333411e-09,1.05302328351625e-10
5.40635135135135e+03	-1.69076531603396e-09,1.20269211253777e-10
5.50645045045045e+03	-1.89057501012483e-09,1.37039518335237e-10
5.60654954954955e+03	-2.10987362925704e-09,1.55793607661785e-10
5.70664864864865e+03	-2.35018158979139e-09,1.76726419799729e-10
5.80674774774775e+03	-2.61311033225138e-09,2.00048402865610e-10
5.90684684684685e+03	-2.90036630474839e-09,2.25986482605272e-10
6.00694594594595e+03	-3.21375507165843e-09,2.54785079237700e-10
6.10704504504505e+03	-3.55518555093208e-09,2.86707172862540e-10
6.20714414414415e+03	-3.92667438352548e-09,3.22035419293835e-10
6.30724324324325e+03	-4.33035043854935e-09,3.61073318249586e-10
6.40734234234235e+03	-4.76845945784518e-09,4.04146435898517e-10
6.50744144144145e+03	-5.24336884381256e-09,4.51603683833637e-10
6.60754054054055e+03	-5.75757259443084e-09,5.03818656621111e-10
6.70763963963965e+03	-6.31369638953929e-09,5.61191030149112e-10
6.80773873873875e+03	-6.91450283256591e-09,6.24148023081379e-10
6.90783783783785e+03	-7.56289685202345e-09,6.93145923805841e-10
7.00793693693695e+03	-8.26193126722383e-09,7.68671685353376e-10
7.10803603603605e+03	-9.01481252279866e-09,8.51244590854382e-10
7.20813513513514e+03	-9.82490659675336e-09,9.41417992192257e-10
7.30823423423424e+03	-1.06957450869272e-08,1.03978112461172e-09
7.40833333333334e+03	-1.16310314808797e-08,1.14696100014018e-09
7.50843243243244e+03	-1.26346476143763e-08,1.26362438278242e-09
7.60853153153154e+03	-1.37106603238047e-08,1.39047984856453e-09
7.70863063063064e+03	-1.48633282980137e-08,1.52827993360340e-09
7.80872972972974e+03	-1.60971091352330e-08,1.67782337351015e-09
7.90882882882884e+03	-1.74166666109051e-08,1.83995743754333e-09
8.00892792792794e+03	-1.88268781624366e-08,2.01558036106145e-09
8.10902702702704e+03	-2.03328425970556e-08,2.20564387995133e-09
8.20912612612614e+03	-2.19398880291542e-08,2.41115587084750e-09
8.30922522522524e+03	-2.36535800536805e-08,2.63318310109656e-09
8.40932432432434e+03	-2.54797301623508e-08,2.87285409256119e-09
8.50942342342344e+03	-2.74244044096511e-08,3.13136210351703e-09
8.60952252252254e+03	-2.94939323358092e-08,3.40996823305493e-09
8.70962162162164e+03	-3.16949161541371e-08,3.71000465255253e-09
8.80972072072074e+03	-3.40342402103641e-08,4.03287796895531e-09
8.90981981981984e+03	-3.65190807218132e-08,4.38007272478490e-09
9.00991891891893e+03	-3.91569158045075e-08,4.75315503996972e-09
9.11001801801803e+03	-4.19555357965417e-08,5.15377640078078e-09
9.21011711711713e+03	-4.49230538862974e-08,5.58367760137355e-09
9.31021621621623e+03	-4.80679170543538e-08,6.04469284357306e-09
9.41031531531533e+03	-5.13989173381921e-08,6.53875400087075e-09
9.51041441441443e+03	-5.49252034290879e-08,7.06789505268410e-09
9.61051351351353e+03	-5.86562926108560e-08,7.63425669524741e-09
9.71061261261263e+03	-6.26020830504042e-08,8.24009113573487e-09
9.81071171171173e+03	-6.67728664503649e-08,8.88776707639563e-09
9.91081081081083e+03	-7.11793410743649e-08,9.57977489583421e-09
1.00109099099099e+04	-7.58326251558390e-08,1.03187320346985e-08
1.01110090090090e+04	-8.07442707015858e-08,1.11073885935318e-08
1.02111081081081e+04	-8.59262777016525e-08,1.19486331504989e-08
1.03112072072072e+04	-9.13911087574298e-08,1.28454988074010e-08
1.04113063063063e+04	-9.71517041402511e-08,1.38011694722944e-08
1.05114054054054e+04	-1.03221497293125e-07,1.48189863876548e-08
1.06115045045045e+04	-1.09614430788626e-07,1.59024549132245e-08
1.07116036036036e+04	-1.16344972756377e-07,1.70552515729906e-08
1.08117027027027e+04	-1.23428133793932e-07,1.82812313762271e-08
1.09118018018018e+04	-1.30879484375331e-07,1.95844354227501e-08
1.10119009009009e+04	-1.38715172771987e-07,2.09690988030798e-08
1.11120000000000e+04	-1.46951943501044e-07,2.24396588044633e-08
1.12120990990991e+04	-1.55607156316803e-07,2.40007634341739e-08
1.13121981981982e+04	-1.64698805761249e-07,2.56572802721039e-08
1.14122972972973e+04	-1.74245541290286e-07,2.74143056646389e-08
1.15123963963964e+04	-1.84266687992674e-07,2.92771742729878e-08
1.16124954954955e+04	-1.94782267919298e-07,3.12514689889107e-08
1.17125945945946e+04	-2.05813022040865e-07,3.33430312317406e-08
1.18126936936937e+04	-2.17380432852701e-07,3.55579716409672e-08
1.19127927927928e+04	-2.29506747645872e-07,3.79026811793206e-08
1.20128918918919e+04	-2.42215002464520e-07,4.03838426613828e-08
1.21129909909910e+04	-2.55529046769761e-07,4.30084427242568e-08
1.22130900900901e+04	-2.69473568831285e-07,4.57837842564141e-08
1.23131891891892e+04	-2.84074121868369e-07,4.87174993020194e-08
1.24132882882883e+04	-2.99357150962592e-07,5.18175624590402e-08
1.25133873873874e+04	-3.15350020765459e-07,5.50923047889708e-08
1.26134864864865e+04	-3.32081044024606e-07,5.85504282580261e-08
1.27135855855856e+04	-3.49579510953104e-07,6.22010207297774e-08
1.28136846846847e+04	-3.67875719467204e-07,6.60535715295385e-08
1.29137837837838e+04	-3.87001006318484e-07,7.01179876026209e-08
1.30138828828829e+04	-4.06987779147268e-07,7.44046102887086e-08
1.31139819819820e+04	-4.27869549485043e-07,7.89242327353348e-08
1.32140810810811e+04	-4.49680966734334e-07,8.36881179751287e-08
1.33141801801802e+04	-4.72457853155518e-07,8.87080176915194e-08
1.34142792792793e+04	-4.96237239890875e-07,9.39961916991454e-08
1.35143783783784e+04	-5.21057404057142e-07,9.95654281661533e-08
1.36144774774775e+04	-5.46957906938844e-07,1.05429064606247e-07
1.37145765765766e+04	-5.73979633315593e-07,1.11601009670040e-07
1.38146756756757e+04	-6.02164831957678e-07,1.18095765765806e-07
1.39147747747748e+04	-6.31557157325284e-07,1.24928452541257e-07
1.40148738738739e+04	-6.62201712507712e-07,1.32114831259316e-07
1.41149729729730e+04	-6.94145093440281e-07,1.39671330101628e-07
1.42150720720721e+04	-7.27435434437608e-07,1.47615070435384e-07
1.43151711711712e+04	-7.62122455083249e-07,1.55963894079950e-07
1.44152702702703e+04	-7.98257508516806e-07,1.64736391612406e-07
1.45153693693694e+04	-8.35893631161172e-07,1.73951931750367e-07
1.46154684684685e+04	-8.75085593933710e-07,1.83630691854008e-07
1.47155675675676e+04	-9.15889954986282e-07,1.93793689591066e-07
1.48156666666667e+04	-9.58365114021252e-07,2.04462815807406e-07
1.49157657657658e+04	-1.00257136823105e-06,2.15660868651546e-07
1.50158648648649e+04	-1.04857096991118e-06,2.27411589000069e-07
1.51159639639640e+04	-1.09642818579783e-06,2.39739697233895e-07
1.52160630630631e+04	-1.14620935818253e-06,2.52670931418962e-07
1.53161621621622e+04	-1.19798296785865e-06,2.66232086943592e-07
1.54162612612613e+04	-1.25181969895570e-06,2.80451057669885e-07
1.55163603603604e+04	-1.30779250571930e-06,2.95356878657337e-07
1.56164594594595e+04	-1.36597668129658e-06,3.10979770519975e-07
1.57165585585586e+04	-1.42644992858861e-06,3.27351185479742e-07
1.58166576576577e+04	-1.48929243323346e-06,3.44503855182118e-07
1.59167567567568e+04	-1.55458693878547e-06,3.62471840342458e-07
1.60168558558559e+04	-1.62241882415812e-06,3.81290582294931e-07
1.61169549549550e+04	-1.69287618340080e-06,4.00996956516146e-07
1.62170540540541e+04	-1.76604990788074e-06,4.21629328203680e-07
1.63171531531532e+04	-1.84203377094525e-06,4.43227609985926e-07
1.64172522522523e+04	-1.92092451513998e-06,4.65833321850082e-07
1.65173513513514e+04	-2.00282194206301e-06,4.89489653372705e-07
1.66174504504505e+04	-2.08782900493579e-06,5.14241528344306e-07
1.67175495495496e+04	-2.17605190397564e-06,5.40135671881063e-07
1.68176486486487e+04	-2.26760018465599e-06,5.67220680122330e-07
1.69177477477478e+04	-2.36258683894449e-06,5.95547092615251e-07
1.70178468468469e+04	-2.46112840961114e-06,6.25167467492335e-07
1.71179459459460e+04	-2.56334509770208e-06,6.56136459551545e-07
1.72180450450451e+04	-2.66936087327724e-06,6.88510901354910e-07
1.73181441441442e+04	-2.77930358951348e-06,7.22349887464342e-07
1.74182432432433e+04	-2.89330510027765e-06,7.57714861940148e-07
1.75183423423424e+04	-3.01150138127919e-06,7.94669709227210e-07
1.76184414414415e+04	-3.13403265491152e-06,8.33280848571156e-07
1.77185405405406e+04	-3.26104351889921e-06,8.73617332098318e-07
1.78186396396397e+04	-3.39268307886932e-06,9.15750946708089e-07
1.79187387387388e+04	-3.52910508496924e-06,9.59756319929582e-07
1.80188378378379e+04	-3.67046807265751e-06,1.00571102990232e-06
1.81189369369370e+04	-3.81693550779839e-06,1.05369571964497e-06
1.82190360360361e+04	-3.96867593619571e-06,1.10379421578119e-06
1.83191351351352e+04	-4.12586313770367e-06,1.15609365190725e-06
1.84192342342342e+04	-4.28867628505835e-06,1.21068459678599e-06
1.85193333333333e+04	-4.45730010757983e-06,1.26766118755654e-06
1.86194324324324e+04	-4.63192505989457e-06,1.32712126817250e-06
1.87195315315315e+04	-4.81274749583931e-06,1.38916653326771e-06
1.88196306306306e+04	-4.99996984770613e-06,1.45390267768017e-06
1.89197297297297e+04	-5.19380081099900e-06,1.52143955185567e-06
1.90198288288288e+04	-5.39445553487274e-06,1.59189132337729e-06
1.91199279279279e+04	-5.60215581843673e-06,1.66537664485899e-06
1.92200270270270e+04	-5.81713031310418e-06,1.74201882847508e-06
1.93201261261261e+04	-6.03961473117964e-06,1.82194602738866e-06
1.94202252252252e+04	-6.26985206088115e-06,1.90529142436207e-06
1.95203243243243e+04	-6.50809278799903e-06,1.99219342784570e-06
1.96204234234234e+04	-6.75459512440110e-06,2.08279587585087e-06
1.97205225225225e+04	-7.00962524360125e-06,2.17724824792282e-06
1.98206216216216e+04	-7.27345752361196e-06,2.27570588555553e-06
1.99207207207207e+04	-7.54637479731250e-06,2.37833022138914e-06
2.00208198198198e+04	-7.82866861057070e-06,2.48528901755288e-06
2.01209189189189e+04	-8.12063948835917e-06,2.59675661354178e-06
2.02210180180180e+04	-8.42259720912491e-06,2.71291418400490e-06
2.03211171171171e+04	-8.73486108766739e-06,2.83395000687193e-06
2.04212162162162e+04	-9.05776026679560e-06,2.96005974224445e-06
2.05213153153153e+04	-9.39163401804329e-06,3.09144672249399e-06
2.06214144144144e+04	-9.73683205172653e-06,3.22832225404082e-06
2.07215135135135e+04	-1.00937148366382e-05,3.37090593130509e-06
2.08216126126126e+04	-1.04626539296865e-05,3.51942596333085e-06
2.09217117117117e+04	-1.08440323157911e-05,3.67411951361711e-06
2.10218108108108e+04	-1.12382447583552e-05,3.83523305372837e-06
2.11219099099099e+04	-1.16456981606594e-05,4.00302273123116e-06
2.12220090090090e+04	-1.20668119385100e-05,4.17775475259618e-06
2.13221081081081e+04	-1.25020184045005e-05,4.35970578168572e-06
2.14222072072072e+04	-1.29517631642628e-05,4.54916335446468e-06
2.15223063063063e+04	-1.34165055250662e-05,4.74642631067532e-06
2.16224054054054e+04	-1.38967189171751e-05,4.95180524313738e-06
2.17225045045045e+04	-1.43928913283526e-05,5.16562296546955e-06
2.18226036036036e+04	-1.49055257519251e-05,5.38821499900902e-06
2.19227027027027e+04	-1.54351406488475e-05,5.61993007972290e-06
2.20228018018018e+04	-1.59822704241899e-05,5.86113068601642e-06
2.21229009009009e+04	-1.65474659185181e-05,6.11219358828289e-06
2.22230000000000e+04	-1.71312949146164e-05,6.37351042118783e-06
2.23230990990991e+04	-1.77343426600539e-05,6.64548827960759e-06
2.24231981981982e+04	-1.83572124060722e-05,6.92855033929723e-06
2.25232972972973e+04	-1.90005259633201e-05,7.22313650331966e-06
2.26233963963964e+04	-1.96649242749449e-05,7.52970407539513e-06
2.27234954954954e+04	-2.03510680076072e-05,7.84872846127701e-06
2.28235945945945e+04	-2.10596381609485e-05,8.18070389945327e-06
2.29236936936936e+04	-2.17913366961128e-05,8.52614422238206e-06
2.30237927927927e+04	-2.25468871838841e-05,8.88558364966757e-06
2.31238918918918e+04	-2.33270354730858e-05,9.25957761449565e-06
2.32239909909909e+04	-2.41325503798336e-05,9.64870362486308e-06
2.33240900900900e+04	-2.49642243983060e-05,1.00535621610929e-05
2.34241891891891e+04	-2.58228744336903e-05,1.04747776112418e-05
2.35242882882882e+04	-2.67093425579870e-05,1.09129992460801e-05
2.36243873873873e+04	-2.76244967893685e-05,1.13689022353987e-05
2.37244864864864e+04	-2.85692318958212e-05,1.18431887074696e-05
2.38245855855855e+04	-2.95444702237990e-05,1.23365888535932e-05
2.39246846846846e+04	-3.05511625526751e-05,1.28498620797007e-05
2.40247837837837e+04	-3.15902889757261e-05,1.33837982072057e-05
2.41248828828828e+04	-3.26628598085043e-05,1.39392187251939e-05
2.42249819819819e+04	-3.37699165253894e-05,1.45169780963346e-05
2.43250810810810e+04	-3.49125327251682e-05,1.51179651189075e-05
2.44251801801801e+04	-3.60918151265112e-05,1.57431043474805e-05
2.45252792792792e+04	-3.73089045942552e-05,1.63933575748386e-05
2.46253783783783e+04	-3.85649771973515e-05,1.70697253780442e-05
2.47254774774774e+04	-3.98612452994749e-05,1.77732487314121e-05
2.48255765765765e+04	-4.11989586832124e-05,1.85050106895117e-05
2.49256756756756e+04	-4.25794057088036e-05,1.92661381434065e-05
2.50257747747747e+04	-4.40039145084579e-05,2.00578036534210e-05
2.51258738738738e+04	-4.54738542172725e-05,2.08812273619334e-05
2.52259729729729e+04	-4.69906362417514e-05,2.17376789899640e-05
2.53260720720720e+04	-4.85557155670679e-05,2.26284799212551e-05
2.54261711711711e+04	-5.01705921040781e-05,2.35550053780390e-05
2.55262702702702e+04	-5.18368120772661e-05,2.45186866925895e-05
2.56263693693693e+04	-5.35559694547176e-05,2.55210136790637e-05
2.57264684684684e+04	-5.53297074212715e-05,2.65635371102919e-05
2.58265675675675e+04	-5.71597198960423e-05,2.76478713043516e-05
2.59266666666666e+04	-5.90477530954870e-05,2.87756968260843e-05
2.60267657657657e+04	-6.09956071432442e-05,2.99487633088862e-05
2.61268648648648e+04	-6.30051377279667e-05,3.11688924024185e-05
2.62269639639639e+04	-6.50782578103374e-05,3.24379808522333e-05
2.63270630630630e+04	-6.72169393806641e-05,3.37580037172845e-05
2.64271621621621e+04	-6.94232152681575e-05,3.51310177321064e-05
2.65272612612612e+04	-7.16991810032905e-05,3.65591648202992e-05
2.66273603603603e+04	-7.40469967344529e-05,3.80446757666169e-05
2.67274594594594e+04	-7.64688892002852e-05,3.95898740550195e-05
2.68275585585585e+04	-7.89671537588542e-05,4.11971798808468e-05
2.69276576576575e+04	-8.15441564751573e-05,4.28691143450798e-05
2.70277567567566e+04	-8.42023362680877e-05,4.46083038396853e-05
2.71278558558557e+04	-8.69442071181632e-05,4.64174846331648e-05
2.72279549549548e+04	-8.97723603374801e-05,4.82995076656391e-05
2.73280540540539e+04	-9.26894669029072e-05,5.02573435639574e-05
2.74281531531530e+04	-9.56982798539171e-05,5.22940878872006e-05
2.75282522522521e+04	-9.88016367562544e-05,5.44129666137463e-05
2.76283513513512e+04	-1.02002462232607e-04,5.66173418816519e-05
2.77284504504503e+04	-1.05303770561360e-04,5.89107179947722e-05
2.78285495495494e+04	-1.08708668344744e-04,6.12967477071933e-05
2.79286486486485e+04	-1.12220357247113e-04,6.37792388001149e-05
2.80287477477476e+04	-1.15842136804640e-04,6.63621609649545e-05
2.81288468468467e+04	-1.19577407307109e-04,6.90496530080977e-05
2.82289459459458e+04	-1.23429672752760e-04,7.18460303928881e-05
2.83290450450449e+04	-1.27402543876822e-04,7.47557931355913e-05
2.84291441441440e+04	-1.31499741254508e-04,7.77836340726472e-05
2.85292432432431e+04	-1.35725098478655e-04,8.09344475179953e-05
2.86293423423422e+04	-1.40082565412801e-04,8.42133383292234e-05
2.87294414414413e+04	-1.44576211519383e-04,8.76256314036213e-05
2.88295405405404e+04	-1.49210229263549e-04,9.11768816248691e-05
2.89296396396395e+04	-1.53988937592183e-04,9.48728842832695e-05
2.90297387387386e+04	-1.58916785487555e-04,9.87196859934745e-05
2.91298378378377e+04	-1.63998355595436e-04,1.02723596134038e-04
2.92299369369368e+04	-1.69238367926347e-04,1.06891198835666e-04
2.93300360360359e+04	-1.74641683628924e-04,1.11229365545626e-04
2.94301351351350e+04	-1.80213308833769e-04,1.15745268197519e-04
2.95302342342341e+04	-1.85958398566165e-04,1.20446393016818e-04
2.96303333333332e+04	-1.91882260724853e-04,1.25340554995121e-04
2.97304324324323e+04	-1.97990360124731e-04,1.30435913066415e-04
2.98305315315314e+04	-2.04288322599772e-04,1.35740986021803e-04
2.99306306306305e+04	-2.10781939162488e-04,1.41264669200440e-04
3.00307297297296e+04	-2.17477170216229e-04,1.47016251995599e-04
3.01308288288287e+04	-2.24380149814044e-04,1.53005436219573e-04
3.02309279279278e+04	-2.31497189960106e-04,1.59242355369405e-04
3.03310270270269e+04	-2.38834784945560e-04,1.65737594842227e-04
3.04311261261260e+04	-2.46399615712861e-04,1.72502213147647e-04
3.05312252252251e+04	-2.54198554239696e-04,1.79547764169734e-04
3.06313243243242e+04	-2.62238667933554e-04,1.86886320533001e-04
3.07314234234233e+04	-2.70527224026392e-04,1.94530498130128e-04
3.08315225225224e+04	-2.79071693958376e-04,2.02493481871549e-04
3.09316216216215e+04	-2.87879757737208e-04,2.10789052721824e-04
3.10317207207206e+04	-2.96959308260011e-04,2.19431616088704e-04
