Freq.	V(n004)*I(R_load)		
1.00E+00	-1.62E-30	2.11E-35	1.62106E-30
1.01E+02	-1.73E-18	2.27E-21	1.73097E-18
2.01E+02	-1.08E-16	2.81E-19	1.0754E-16
3.01E+02	-1.21E-15	4.75E-18	1.21292E-15
4.01E+02	-6.78E-15	3.54E-17	6.78188E-15
5.01E+02	-2.58E-14	1.68E-16	2.57972E-14
6.02E+02	-7.69E-14	6.01E-16	7.68898E-14
7.02E+02	-1.94E-13	1.77E-15	1.93651E-13
8.02E+02	-4.31E-13	4.49E-15	4.3113E-13
9.02E+02	-8.73E-13	1.02E-14	8.73529E-13
1.00E+03	-1.64E-12	2.14E-14	1.64309E-12
1.10E+03	-2.91E-12	4.17E-14	2.91021E-12
1.20E+03	-4.90E-12	7.66E-14	4.90473E-12
1.30E+03	-7.93E-12	1.34E-13	7.9285E-12
1.40E+03	-1.24E-11	2.25E-13	1.23691E-11
1.50E+03	-1.87E-11	3.65E-13	1.87151E-11
1.60E+03	-2.76E-11	5.74E-13	2.75719E-11
1.70E+03	-3.97E-11	8.78E-13	3.96798E-11
1.80E+03	-5.59E-11	1.31E-12	5.59324E-11
1.90E+03	-7.74E-11	1.92E-12	7.73972E-11
2.00E+03	-1.05E-10	2.74E-12	1.05337E-10
2.10E+03	-1.41E-10	3.86E-12	1.41232E-10
2.20E+03	-1.87E-10	5.35E-12	1.86805E-10
2.30E+03	-2.44E-10	7.31E-12	2.44048E-10
2.40E+03	-3.15E-10	9.86E-12	3.15245E-10
2.50E+03	-4.03E-10	1.31E-11	4.03005E-10
2.60E+03	-5.10E-10	1.73E-11	5.10291E-10
2.70E+03	-6.40E-10	2.25E-11	6.40448E-10
2.80E+03	-7.97E-10	2.91E-11	7.97241E-10
2.90E+03	-9.84E-10	3.73E-11	9.84886E-10
3.00E+03	-1.21E-09	4.73E-11	1.20808E-09
3.10E+03	-1.47E-09	5.95E-11	1.47207E-09
3.20E+03	-1.78E-09	7.45E-11	1.78263E-09
3.30E+03	-2.14E-09	9.25E-11	2.14616E-09
3.40E+03	-2.57E-09	1.14E-10	2.56973E-09
3.50E+03	-3.06E-09	1.40E-10	3.06105E-09
3.60E+03	-3.62E-09	1.71E-10	3.62862E-09
3.70E+03	-4.28E-09	2.07E-10	4.28169E-09
3.80E+03	-5.02E-09	2.50E-10	5.03037E-09
3.90E+03	-5.88E-09	3.00E-10	5.88565E-09
4.00E+03	-6.85E-09	3.59E-10	6.85947E-09
4.11E+03	-7.95E-09	4.27E-10	7.96474E-09
4.21E+03	-9.20E-09	5.06E-10	9.21545E-09
4.31E+03	-1.06E-08	5.98E-10	1.06267E-08
4.41E+03	-1.22E-08	7.04E-10	1.22148E-08
4.51E+03	-1.40E-08	8.25E-10	1.39972E-08
4.61E+03	-1.60E-08	9.64E-10	1.59928E-08
4.71E+03	-1.82E-08	1.12E-09	1.82217E-08
4.81E+03	-2.07E-08	1.30E-09	2.07057E-08
4.91E+03	-2.34E-08	1.51E-09	2.34679E-08
5.01E+03	-2.65E-08	1.74E-09	2.6533E-08
5.11E+03	-2.99E-08	2.00E-09	2.99275E-08
5.21E+03	-3.36E-08	2.30E-09	3.36796E-08
5.31E+03	-3.77E-08	2.63E-09	3.78194E-08
5.41E+03	-4.23E-08	3.01E-09	4.23788E-08
5.51E+03	-4.73E-08	3.43E-09	4.73918E-08
5.61E+03	-5.28E-08	3.90E-09	5.28946E-08
5.71E+03	-5.88E-08	4.42E-09	5.89253E-08
5.81E+03	-6.53E-08	5.00E-09	6.55248E-08
5.91E+03	-7.25E-08	5.65E-09	7.27359E-08
6.01E+03	-8.04E-08	6.37E-09	8.06043E-08
6.11E+03	-8.89E-08	7.17E-09	8.9178E-08
6.21E+03	-9.82E-08	8.05E-09	9.8508E-08
6.31E+03	-1.08E-07	9.03E-09	1.08648E-07
6.41E+03	-1.19E-07	1.01E-08	1.19655E-07
6.51E+03	-1.31E-07	1.13E-08	1.31588E-07
6.61E+03	-1.44E-07	1.26E-08	1.44511E-07
6.71E+03	-1.58E-07	1.40E-08	1.5849E-07
6.81E+03	-1.73E-07	1.56E-08	1.73595E-07
6.91E+03	-1.89E-07	1.73E-08	1.89899E-07
7.01E+03	-2.07E-07	1.92E-08	2.0748E-07
7.11E+03	-2.25E-07	2.13E-08	2.26419E-07
7.21E+03	-2.46E-07	2.35E-08	2.46801E-07
7.31E+03	-2.67E-07	2.60E-08	2.68716E-07
7.41E+03	-2.91E-07	2.87E-08	2.92257E-07
7.51E+03	-3.16E-07	3.16E-08	3.17523E-07
7.61E+03	-3.43E-07	3.48E-08	3.44617E-07
7.71E+03	-3.72E-07	3.82E-08	3.73648E-07
7.81E+03	-4.03E-07	4.20E-08	4.04729E-07
7.91E+03	-4.36E-07	4.60E-08	4.37978E-07
8.01E+03	-4.71E-07	5.04E-08	4.73519E-07
8.11E+03	-5.08E-07	5.52E-08	5.11482E-07
8.21E+03	-5.49E-07	6.03E-08	5.52002E-07
8.31E+03	-5.92E-07	6.59E-08	5.95222E-07
8.41E+03	-6.37E-07	7.19E-08	6.41289E-07
8.51E+03	-6.86E-07	7.83E-08	6.90359E-07
8.61E+03	-7.38E-07	8.53E-08	7.42592E-07
8.71E+03	-7.93E-07	9.28E-08	7.98157E-07
8.81E+03	-8.51E-07	1.01E-07	8.57229E-07
8.91E+03	-9.13E-07	1.10E-07	9.19994E-07
9.01E+03	-9.79E-07	1.19E-07	9.8664E-07
9.11E+03	-1.05E-06	1.29E-07	1.05737E-06
9.21E+03	-1.12E-06	1.40E-07	1.13239E-06
9.31E+03	-1.20E-06	1.51E-07	1.21191E-06
9.41E+03	-1.29E-06	1.64E-07	1.29616E-06
9.51E+03	-1.37E-06	1.77E-07	1.38539E-06
9.61E+03	-1.47E-06	1.91E-07	1.47982E-06
9.71E+03	-1.57E-06	2.06E-07	1.57971E-06
9.81E+03	-1.67E-06	2.22E-07	1.68534E-06
9.91E+03	-1.78E-06	2.40E-07	1.79696E-06
1.00E+04	-1.90E-06	2.58E-07	1.91488E-06
1.01E+04	-2.02E-06	2.78E-07	2.03939E-06
1.02E+04	-2.15E-06	2.99E-07	2.17079E-06
1.03E+04	-2.29E-06	3.22E-07	2.30941E-06
1.04E+04	-2.43E-06	3.46E-07	2.45559E-06
1.05E+04	-2.58E-06	3.71E-07	2.60966E-06
1.06E+04	-2.74E-06	3.98E-07	2.77199E-06
1.07E+04	-2.91E-06	4.27E-07	2.94296E-06
1.08E+04	-3.09E-06	4.58E-07	3.12295E-06
1.09E+04	-3.28E-06	4.90E-07	3.31237E-06
1.10E+04	-3.47E-06	5.25E-07	3.51163E-06
1.11E+04	-3.68E-06	5.62E-07	3.72118E-06
1.12E+04	-3.90E-06	6.01E-07	3.94145E-06
1.13E+04	-4.12E-06	6.43E-07	4.17293E-06
1.14E+04	-4.36E-06	6.87E-07	4.41609E-06
1.15E+04	-4.61E-06	7.34E-07	4.67143E-06
1.16E+04	-4.88E-06	7.83E-07	4.93949E-06
1.17E+04	-5.15E-06	8.36E-07	5.2208E-06
1.18E+04	-5.44E-06	8.91E-07	5.51592E-06
1.19E+04	-5.75E-06	9.50E-07	5.82544E-06
1.20E+04	-6.07E-06	1.01E-06	6.14996E-06
1.21E+04	-6.40E-06	1.08E-06	6.4901E-06
1.22E+04	-6.75E-06	1.15E-06	6.84651E-06
1.23E+04	-7.12E-06	1.22E-06	7.21987E-06
1.24E+04	-7.50E-06	1.30E-06	7.61086E-06
1.25E+04	-7.90E-06	1.38E-06	8.02021E-06
1.26E+04	-8.32E-06	1.47E-06	8.44866E-06
1.27E+04	-8.76E-06	1.56E-06	8.89699E-06
1.28E+04	-9.22E-06	1.66E-06	9.366E-06
1.29E+04	-9.70E-06	1.76E-06	9.85651E-06
1.30E+04	-1.02E-05	1.87E-06	1.03694E-05
1.31E+04	-1.07E-05	1.98E-06	1.09055E-05
1.32E+04	-1.13E-05	2.10E-06	1.14658E-05
1.33E+04	-1.18E-05	2.23E-06	1.20512E-05
1.34E+04	-1.24E-05	2.36E-06	1.26627E-05
1.35E+04	-1.31E-05	2.50E-06	1.33014E-05
1.36E+04	-1.37E-05	2.65E-06	1.39682E-05
1.37E+04	-1.44E-05	2.80E-06	1.46643E-05
1.38E+04	-1.51E-05	2.97E-06	1.53909E-05
1.39E+04	-1.58E-05	3.14E-06	1.61489E-05
1.40E+04	-1.66E-05	3.32E-06	1.69398E-05
1.41E+04	-1.74E-05	3.51E-06	1.77647E-05
1.42E+04	-1.83E-05	3.71E-06	1.86249E-05
1.43E+04	-1.91E-05	3.92E-06	1.95218E-05
1.44E+04	-2.00E-05	4.14E-06	2.04568E-05
1.45E+04	-2.10E-05	4.38E-06	2.14312E-05
1.46E+04	-2.20E-05	4.62E-06	2.24466E-05
1.47E+04	-2.30E-05	4.88E-06	2.35045E-05
1.48E+04	-2.41E-05	5.15E-06	2.46064E-05
1.49E+04	-2.52E-05	5.43E-06	2.57541E-05
1.50E+04	-2.63E-05	5.73E-06	2.69492E-05
1.51E+04	-2.75E-05	6.04E-06	2.81935E-05
1.52E+04	-2.88E-05	6.36E-06	2.94888E-05
1.53E+04	-3.01E-05	6.71E-06	3.08369E-05
1.54E+04	-3.15E-05	7.07E-06	3.22398E-05
1.55E+04	-3.29E-05	7.44E-06	3.36995E-05
1.56E+04	-3.43E-05	7.84E-06	3.5218E-05
1.57E+04	-3.59E-05	8.25E-06	3.67976E-05
1.58E+04	-3.74E-05	8.69E-06	3.84404E-05
1.59E+04	-3.91E-05	9.14E-06	4.01487E-05
1.60E+04	-4.08E-05	9.62E-06	4.19248E-05
1.61E+04	-4.26E-05	1.01E-05	4.37713E-05
1.62E+04	-4.44E-05	1.06E-05	4.56906E-05
1.63E+04	-4.64E-05	1.12E-05	4.76854E-05
1.64E+04	-4.83E-05	1.18E-05	4.97584E-05
1.65E+04	-5.04E-05	1.24E-05	5.19122E-05
1.66E+04	-5.26E-05	1.30E-05	5.415E-05
1.67E+04	-5.48E-05	1.37E-05	5.64745E-05
1.68E+04	-5.71E-05	1.43E-05	5.8889E-05
1.69E+04	-5.95E-05	1.51E-05	6.13966E-05
1.70E+04	-6.20E-05	1.58E-05	6.40005E-05
1.71E+04	-6.46E-05	1.66E-05	6.67043E-05
1.72E+04	-6.73E-05	1.74E-05	6.95114E-05
1.73E+04	-7.01E-05	1.83E-05	7.24254E-05
1.74E+04	-7.30E-05	1.92E-05	7.54502E-05
1.75E+04	-7.60E-05	2.01E-05	7.85896E-05
1.76E+04	-7.91E-05	2.11E-05	8.18477E-05
1.77E+04	-8.23E-05	2.22E-05	8.52285E-05
1.78E+04	-8.56E-05	2.32E-05	8.87364E-05
1.79E+04	-8.91E-05	2.44E-05	9.23759E-05
1.80E+04	-9.27E-05	2.55E-05	9.61515E-05
1.81E+04	-9.64E-05	2.68E-05	0.000100068
1.82E+04	-1.00E-04	2.81E-05	0.00010413
1.83E+04	-1.04E-04	2.94E-05	0.000108343
1.84E+04	-1.08E-04	3.08E-05	0.000112713
1.85E+04	-1.13E-04	3.23E-05	0.000117243
1.86E+04	-1.17E-04	3.38E-05	0.000121941
1.87E+04	-1.22E-04	3.54E-05	0.000126812
1.88E+04	-1.27E-04	3.71E-05	0.000131862
1.89E+04	-1.31E-04	3.88E-05	0.000137097
1.90E+04	-1.37E-04	4.06E-05	0.000142523
1.91E+04	-1.42E-04	4.25E-05	0.000148148
1.92E+04	-1.47E-04	4.45E-05	0.000153978
1.93E+04	-1.53E-04	4.65E-05	0.000160019
1.94E+04	-1.59E-04	4.87E-05	0.00016628
1.95E+04	-1.65E-04	5.09E-05	0.000172769
1.96E+04	-1.71E-04	5.33E-05	0.000179492
1.97E+04	-1.78E-04	5.57E-05	0.000186458
1.98E+04	-1.85E-04	5.83E-05	0.000193675
1.99E+04	-1.92E-04	6.10E-05	0.000201153
2.00E+04	-1.99E-04	6.37E-05	0.000208899
2.01E+04	-2.06E-04	6.66E-05	0.000216924
2.02E+04	-2.14E-04	6.97E-05	0.000225236
2.03E+04	-2.22E-04	7.28E-05	0.000233847
2.04E+04	-2.31E-04	7.61E-05	0.000242765
2.05E+04	-2.39E-04	7.95E-05	0.000252002
2.06E+04	-2.48E-04	8.31E-05	0.000261569
2.07E+04	-2.57E-04	8.68E-05	0.000271477
2.08E+04	-2.67E-04	9.07E-05	0.000281738
2.09E+04	-2.77E-04	9.48E-05	0.000292365
2.10E+04	-2.87E-04	9.90E-05	0.000303368
2.11E+04	-2.97E-04	1.03E-04	0.000314763
2.12E+04	-3.08E-04	1.08E-04	0.000326562
2.13E+04	-3.19E-04	1.13E-04	0.000338779
2.14E+04	-3.31E-04	1.18E-04	0.000351429
2.15E+04	-3.43E-04	1.23E-04	0.000364526
2.16E+04	-3.56E-04	1.28E-04	0.000378087
2.17E+04	-3.68E-04	1.34E-04	0.000392128
2.18E+04	-3.82E-04	1.40E-04	0.000406664
2.19E+04	-3.96E-04	1.46E-04	0.000421714
2.20E+04	-4.10E-04	1.53E-04	0.000437294
2.21E+04	-4.25E-04	1.59E-04	0.000453425
2.22E+04	-4.40E-04	1.66E-04	0.000470124
2.23E+04	-4.56E-04	1.73E-04	0.000487411
2.24E+04	-4.72E-04	1.81E-04	0.000505308
2.25E+04	-4.89E-04	1.89E-04	0.000523835
2.26E+04	-5.06E-04	1.97E-04	0.000543015
2.27E+04	-5.24E-04	2.06E-04	0.00056287
2.28E+04	-5.43E-04	2.15E-04	0.000583425
2.29E+04	-5.62E-04	2.24E-04	0.000604702
2.30E+04	-5.82E-04	2.34E-04	0.000626729
2.31E+04	-6.02E-04	2.44E-04	0.000649532
2.32E+04	-6.23E-04	2.54E-04	0.000673137
2.33E+04	-6.45E-04	2.65E-04	0.000697573
2.34E+04	-6.68E-04	2.77E-04	0.00072287
2.35E+04	-6.91E-04	2.88E-04	0.000749058
2.36E+04	-7.15E-04	3.01E-04	0.000776169
2.37E+04	-7.40E-04	3.14E-04	0.000804235
2.38E+04	-7.66E-04	3.27E-04	0.000833291
2.39E+04	-7.93E-04	3.41E-04	0.000863372
2.40E+04	-8.21E-04	3.56E-04	0.000894514
2.41E+04	-8.49E-04	3.71E-04	0.000926755
2.42E+04	-8.79E-04	3.87E-04	0.000960135
2.43E+04	-9.09E-04	4.04E-04	0.000994695
2.44E+04	-9.41E-04	4.21E-04	0.001030478
2.45E+04	-9.73E-04	4.39E-04	0.001067526
2.46E+04	-1.01E-03	4.58E-04	0.001105887
2.47E+04	-1.04E-03	4.77E-04	0.001145608
2.48E+04	-1.08E-03	4.98E-04	0.001186738
2.49E+04	-1.11E-03	5.19E-04	0.001229328
2.50E+04	-1.15E-03	5.41E-04	0.001273431
2.51E+04	-1.19E-03	5.65E-04	0.001319104
2.52E+04	-1.23E-03	5.89E-04	0.001366403
2.53E+04	-1.28E-03	6.14E-04	0.001415388
2.54E+04	-1.32E-03	6.40E-04	0.001466122
2.55E+04	-1.36E-03	6.67E-04	0.001518668
2.56E+04	-1.41E-03	6.96E-04	0.001573094
2.57E+04	-1.46E-03	7.26E-04	0.00162947
2.58E+04	-1.51E-03	7.57E-04	0.001687868
2.59E+04	-1.56E-03	7.89E-04	0.001748363
2.60E+04	-1.61E-03	8.23E-04	0.001811035
2.61E+04	-1.67E-03	8.58E-04	0.001875964
2.62E+04	-1.73E-03	8.95E-04	0.001943236
2.63E+04	-1.78E-03	9.33E-04	0.002012939
2.64E+04	-1.84E-03	9.73E-04	0.002085165
2.65E+04	-1.91E-03	1.01E-03	0.002160009
2.66E+04	-1.97E-03	1.06E-03	0.002237572
2.67E+04	-2.04E-03	1.10E-03	0.002317957
2.68E+04	-2.11E-03	1.15E-03	0.002401272
2.69E+04	-2.18E-03	1.20E-03	0.002487631
2.70E+04	-2.25E-03	1.25E-03	0.002577149
2.71E+04	-2.33E-03	1.31E-03	0.00266995
2.72E+04	-2.41E-03	1.36E-03	0.00276616
2.73E+04	-2.49E-03	1.42E-03	0.002865913
2.74E+04	-2.57E-03	1.48E-03	0.002969347
2.75E+04	-2.66E-03	1.55E-03	0.003076606
2.76E+04	-2.75E-03	1.61E-03	0.00318784
2.77E+04	-2.84E-03	1.68E-03	0.003303208
2.78E+04	-2.94E-03	1.76E-03	0.003422872
2.79E+04	-3.04E-03	1.83E-03	0.003547003
2.80E+04	-3.14E-03	1.91E-03	0.00367578
2.81E+04	-3.25E-03	1.99E-03	0.003809389
2.82E+04	-3.36E-03	2.08E-03	0.003948025
2.83E+04	-3.47E-03	2.17E-03	0.00409189
2.84E+04	-3.59E-03	2.27E-03	0.004241196
2.85E+04	-3.71E-03	2.36E-03	0.004396166
2.86E+04	-3.83E-03	2.47E-03	0.00455703
2.87E+04	-3.96E-03	2.58E-03	0.00472403
2.88E+04	-4.09E-03	2.69E-03	0.00489742
2.89E+04	-4.23E-03	2.81E-03	0.005077464
2.90E+04	-4.37E-03	2.93E-03	0.005264439
2.91E+04	-4.52E-03	3.06E-03	0.005458634
2.92E+04	-4.67E-03	3.20E-03	0.005660351
2.93E+04	-4.83E-03	3.34E-03	0.005869908
2.94E+04	-4.99E-03	3.49E-03	0.006087637
2.95E+04	-5.16E-03	3.64E-03	0.006313885
2.96E+04	-5.33E-03	3.80E-03	0.006549015
2.97E+04	-5.51E-03	3.97E-03	0.006793409
2.98E+04	-5.69E-03	4.15E-03	0.007047466
2.99E+04	-5.88E-03	4.34E-03	0.007311605
3.00E+04	-6.08E-03	4.53E-03	0.007586265
3.01E+04	-6.29E-03	4.74E-03	0.007871905
3.02E+04	-6.50E-03	4.95E-03	0.008169009
3.03E+04	-6.71E-03	5.18E-03	0.008478082
3.04E+04	-6.94E-03	5.41E-03	0.008799656
3.05E+04	-7.17E-03	5.66E-03	0.00913429
3.06E+04	-7.41E-03	5.92E-03	0.009482569
3.07E+04	-7.66E-03	6.19E-03	0.009845108
3.08E+04	-7.91E-03	6.47E-03	0.010222554
3.09E+04	-8.18E-03	6.77E-03	0.010615586
3.10E+04	-8.45E-03	7.08E-03	0.011024918
3.11E+04	-8.73E-03	7.41E-03	0.011451302
3.12E+04	-9.02E-03	7.76E-03	0.011895528
3.13E+04	-9.32E-03	8.12E-03	0.012358426
3.14E+04	-9.63E-03	8.50E-03	0.012840871
3.15E+04	-9.94E-03	8.90E-03	0.013343785
3.16E+04	-1.03E-02	9.32E-03	0.013868138
3.17E+04	-1.06E-02	9.76E-03	0.01441495
3.18E+04	-1.10E-02	1.02E-02	0.0149853
3.19E+04	-1.13E-02	1.07E-02	0.015580322
3.20E+04	-1.17E-02	1.12E-02	0.016201212
3.21E+04	-1.21E-02	1.18E-02	0.016849234
3.22E+04	-1.25E-02	1.23E-02	0.01752572
3.23E+04	-1.29E-02	1.29E-02	0.018232075
3.24E+04	-1.33E-02	1.35E-02	0.018969784
3.25E+04	-1.37E-02	1.42E-02	0.019740415
3.26E+04	-1.42E-02	1.49E-02	0.020545625
3.27E+04	-1.46E-02	1.56E-02	0.021387166
3.28E+04	-1.51E-02	1.64E-02	0.022266887
3.29E+04	-1.56E-02	1.72E-02	0.023186749
3.30E+04	-1.61E-02	1.80E-02	0.024148822
3.31E+04	-1.66E-02	1.89E-02	0.025155299
3.32E+04	-1.71E-02	1.99E-02	0.026208502
3.33E+04	-1.76E-02	2.09E-02	0.027310891
3.34E+04	-1.82E-02	2.19E-02	0.02846507
3.35E+04	-1.87E-02	2.30E-02	0.029673801
3.36E+04	-1.93E-02	2.42E-02	0.030940012
3.37E+04	-1.99E-02	2.54E-02	0.032266808
3.38E+04	-2.04E-02	2.67E-02	0.033657485
3.39E+04	-2.10E-02	2.81E-02	0.035115539
3.40E+04	-2.17E-02	2.96E-02	0.036644683
3.41E+04	-2.23E-02	3.11E-02	0.038248863
3.42E+04	-2.29E-02	3.27E-02	0.039932267
3.43E+04	-2.35E-02	3.44E-02	0.041699349
3.44E+04	-2.42E-02	3.62E-02	0.043554845
3.45E+04	-2.48E-02	3.82E-02	0.04550379
3.46E+04	-2.54E-02	4.02E-02	0.047551541
3.47E+04	-2.61E-02	4.23E-02	0.049703799
3.48E+04	-2.67E-02	4.46E-02	0.051966634
3.49E+04	-2.73E-02	4.70E-02	0.054346508
3.50E+04	-2.79E-02	4.95E-02	0.056850302
3.51E+04	-2.85E-02	5.22E-02	0.05948535
3.52E+04	-2.91E-02	5.50E-02	0.062259465
3.53E+04	-2.97E-02	5.80E-02	0.065180973
3.54E+04	-3.02E-02	6.12E-02	0.068258754
3.55E+04	-3.07E-02	6.46E-02	0.071502269
3.56E+04	-3.11E-02	6.82E-02	0.074921613
3.57E+04	-3.15E-02	7.19E-02	0.078527547
3.58E+04	-3.18E-02	7.60E-02	0.082331548
3.59E+04	-3.20E-02	8.02E-02	0.086345857
3.60E+04	-3.21E-02	8.47E-02	0.090583526
3.61E+04	-3.22E-02	8.95E-02	0.095058475
3.62E+04	-3.21E-02	9.45E-02	0.099785541
3.63E+04	-3.18E-02	9.98E-02	0.104780542
3.64E+04	-3.14E-02	1.05E-01	0.110060329
3.65E+04	-3.09E-02	1.11E-01	0.115642853
3.66E+04	-3.01E-02	1.18E-01	0.121547221
3.67E+04	-2.90E-02	1.24E-01	0.127793761
3.68E+04	-2.77E-02	1.32E-01	0.134404084
3.69E+04	-2.61E-02	1.39E-01	0.141401139
3.70E+04	-2.41E-02	1.47E-01	0.148809276
3.71E+04	-2.18E-02	1.55E-01	0.156654292
3.72E+04	-1.89E-02	1.64E-01	0.164963476
3.73E+04	-1.56E-02	1.73E-01	0.173765649
3.74E+04	-1.17E-02	1.83E-01	0.183091179
3.75E+04	-7.20E-03	1.93E-01	0.192971989
3.76E+04	-1.97E-03	2.03E-01	0.20344154
3.77E+04	4.07E-03	2.14E-01	0.214534785
3.78E+04	1.10E-02	2.26E-01	0.226288091
3.79E+04	1.89E-02	2.38E-01	0.238739122
3.80E+04	2.79E-02	2.50E-01	0.251926662
3.81E+04	3.81E-02	2.63E-01	0.265890389
3.82E+04	4.96E-02	2.76E-01	0.280670569
3.83E+04	6.26E-02	2.90E-01	0.296307668
3.84E+04	7.72E-02	3.03E-01	0.31284186
3.85E+04	9.36E-02	3.17E-01	0.330312425
3.86E+04	1.12E-01	3.30E-01	0.34875702
3.87E+04	1.32E-01	3.44E-01	0.368210788
3.88E+04	1.55E-01	3.57E-01	0.388705329
3.89E+04	1.79E-01	3.69E-01	0.410267474
3.90E+04	2.07E-01	3.80E-01	0.432917887
3.91E+04	2.37E-01	3.91E-01	0.456669478
3.92E+04	2.69E-01	3.99E-01	0.481525622
3.93E+04	3.04E-01	4.06E-01	0.507478218
3.94E+04	3.42E-01	4.11E-01	0.534505597
3.95E+04	3.83E-01	4.12E-01	0.562570327
3.96E+04	4.26E-01	4.11E-01	0.591616999
3.97E+04	4.71E-01	4.05E-01	0.621570048
3.98E+04	5.19E-01	3.95E-01	0.652331753
3.99E+04	5.68E-01	3.81E-01	0.683780531
4.00E+04	6.18E-01	3.60E-01	0.715769695
4.01E+04	6.69E-01	3.35E-01	0.748126835
4.02E+04	7.20E-01	3.02E-01	0.780654014
4.03E+04	7.69E-01	2.64E-01	0.813128932
4.04E+04	8.17E-01	2.18E-01	0.845307207
4.05E+04	8.61E-01	1.66E-01	0.876925862
4.06E+04	9.01E-01	1.08E-01	0.907708044
4.07E+04	9.36E-01	4.34E-02	0.937368915
4.08E+04	9.65E-01	-2.66E-02	0.965622545
4.09E+04	9.87E-01	-1.01E-01	0.992189564
4.10E+04	1.00E+00	-1.80E-01	1.016805194
4.11E+04	1.01E+00	-2.61E-01	1.039227261
4.12E+04	1.00E+00	-3.43E-01	1.059243698
4.13E+04	9.89E-01	-4.25E-01	1.076679099
4.14E+04	9.67E-01	-5.06E-01	1.091399911
4.15E+04	9.36E-01	-5.84E-01	1.103317935
4.16E+04	8.97E-01	-6.58E-01	1.112391966
4.17E+04	8.50E-01	-7.27E-01	1.118627506
4.18E+04	7.97E-01	-7.90E-01	1.122074652
4.19E+04	7.38E-01	-8.46E-01	1.122824374
4.20E+04	6.75E-01	-8.95E-01	1.121003506
4.21E+04	6.08E-01	-9.37E-01	1.116768834
4.22E+04	5.40E-01	-9.70E-01	1.110300659
4.23E+04	4.70E-01	-9.97E-01	1.10179624
4.24E+04	4.00E-01	-1.02E+00	1.091463435
4.25E+04	3.31E-01	-1.03E+00	1.079514824
4.26E+04	2.63E-01	-1.03E+00	1.066162494
4.27E+04	1.98E-01	-1.03E+00	1.051613619
4.28E+04	1.35E-01	-1.03E+00	1.036066882
4.29E+04	7.50E-02	-1.02E+00	1.019709732
4.30E+04	1.87E-02	-1.00E+00	1.00271643
4.31E+04	-3.41E-02	-9.85E-01	0.985246803
4.32E+04	-8.33E-02	-9.64E-01	0.967445607
4.33E+04	-1.29E-01	-9.41E-01	0.949442402
4.34E+04	-1.71E-01	-9.16E-01	0.931351823
4.35E+04	-2.09E-01	-8.89E-01	0.913274166
4.36E+04	-2.44E-01	-8.61E-01	0.895296192
4.37E+04	-2.76E-01	-8.33E-01	0.877492076
4.38E+04	-3.04E-01	-8.04E-01	0.859924443
4.39E+04	-3.30E-01	-7.75E-01	0.842645442
4.40E+04	-3.53E-01	-7.47E-01	0.825697811
4.41E+04	-3.73E-01	-7.18E-01	0.809115921
4.42E+04	-3.91E-01	-6.90E-01	0.79292676
4.43E+04	-4.07E-01	-6.62E-01	0.777150858
4.44E+04	-4.21E-01	-6.35E-01	0.761803141
4.45E+04	-4.33E-01	-6.08E-01	0.746893704
4.46E+04	-4.44E-01	-5.83E-01	0.732428517
4.47E+04	-4.53E-01	-5.58E-01	0.718410046
4.48E+04	-4.60E-01	-5.34E-01	0.704837816
4.49E+04	-4.67E-01	-5.10E-01	0.691708898
4.50E+04	-4.72E-01	-4.88E-01	0.679018338
4.51E+04	-4.77E-01	-4.66E-01	0.666759536
4.52E+04	-4.80E-01	-4.45E-01	0.654924567
4.53E+04	-4.83E-01	-4.25E-01	0.643504462
4.54E+04	-4.85E-01	-4.06E-01	0.632489445
4.55E+04	-4.86E-01	-3.87E-01	0.621869143
4.56E+04	-4.87E-01	-3.70E-01	0.611632755
4.57E+04	-4.88E-01	-3.53E-01	0.601769199
4.58E+04	-4.88E-01	-3.36E-01	0.592267236
4.59E+04	-4.87E-01	-3.21E-01	0.583115571
4.60E+04	-4.86E-01	-3.06E-01	0.57430294
4.61E+04	-4.85E-01	-2.91E-01	0.565818176
4.62E+04	-4.84E-01	-2.77E-01	0.557650268
4.63E+04	-4.82E-01	-2.64E-01	0.549788404
4.64E+04	-4.80E-01	-2.51E-01	0.54222201
4.65E+04	-4.79E-01	-2.39E-01	0.534940772
4.66E+04	-4.76E-01	-2.27E-01	0.527934665
4.67E+04	-4.74E-01	-2.16E-01	0.52119396
4.68E+04	-4.72E-01	-2.05E-01	0.514709237
4.69E+04	-4.70E-01	-1.95E-01	0.508471396
4.70E+04	-4.67E-01	-1.85E-01	0.502471652
4.71E+04	-4.65E-01	-1.75E-01	0.49670154
4.72E+04	-4.62E-01	-1.66E-01	0.491152913
4.73E+04	-4.60E-01	-1.57E-01	0.485817936
4.74E+04	-4.57E-01	-1.48E-01	0.480689082
4.75E+04	-4.55E-01	-1.40E-01	0.475759127
4.76E+04	-4.52E-01	-1.32E-01	0.471021139
4.77E+04	-4.50E-01	-1.24E-01	0.466468474
4.78E+04	-4.47E-01	-1.17E-01	0.462094762
4.79E+04	-4.45E-01	-1.10E-01	0.457893907
4.80E+04	-4.42E-01	-1.03E-01	0.453860069
4.81E+04	-4.40E-01	-9.60E-02	0.44998766
4.82E+04	-4.37E-01	-8.95E-02	0.446271333
4.83E+04	-4.35E-01	-8.31E-02	0.442705974
4.84E+04	-4.32E-01	-7.70E-02	0.439286693
4.85E+04	-4.30E-01	-7.10E-02	0.436008813
4.86E+04	-4.28E-01	-6.53E-02	0.432867864
4.87E+04	-4.26E-01	-5.96E-02	0.429859574
4.88E+04	-4.24E-01	-5.42E-02	0.42697986
4.89E+04	-4.21E-01	-4.88E-02	0.42422482
4.90E+04	-4.19E-01	-4.37E-02	0.421590727
4.91E+04	-4.17E-01	-3.86E-02	0.41907402
4.92E+04	-4.15E-01	-3.37E-02	0.416671297
4.93E+04	-4.13E-01	-2.89E-02	0.41437931
4.94E+04	-4.11E-01	-2.42E-02	0.412194956
4.96E+04	-4.10E-01	-1.96E-02	0.410115271
4.97E+04	-4.08E-01	-1.51E-02	0.408137427
4.98E+04	-4.06E-01	-1.06E-02	0.406258722
4.99E+04	-4.04E-01	-6.32E-03	0.404476577
